CITIFILE A.01.01
#NA VERSION HP8530A.01.60
#NA TITLE A4
NAME FORMATTED
#NA REGISTER 2
VAR FREQ MAG 201
DATA P[2] RI
SEG_LIST_BEGIN
SEG 3950000000 5800000000 201
SEG_LIST_END
COMMENT       YEAR MONTH DAY HOUR MINUTE SECONDS
CONSTANT TIME 2012   10   30  16    20    50.0
BEGIN
1.00366E1,0.0E0
1.00693E1,0.0E0
1.00698E1,0.0E0
1.00693E1,0.0E0
1.00952E1,0.0E0
1.01269E1,0.0E0
1.0146E1,0.0E0
1.01347E1,0.0E0
1.01674E1,0.0E0
1.02187E1,0.0E0
1.02353E1,0.0E0
1.025E1,0.0E0
1.02617E1,0.0E0
1.02773E1,0.0E0
1.02856E1,0.0E0
1.02553E1,0.0E0
1.02670E1,0.0E0
1.02954E1,0.0E0
1.03173E1,0.0E0
1.03359E1,0.0E0
1.03315E1,0.0E0
1.03637E1,0.0E0
1.03833E1,0.0E0
1.03994E1,0.0E0
1.04438E1,0.0E0
1.04775E1,0.0E0
1.05097E1,0.0E0
1.05131E1,0.0E0
1.04814E1,0.0E0
1.05039E1,0.0E0
1.04863E1,0.0E0
1.04990E1,0.0E0
1.05078E1,0.0E0
1.05127E1,0.0E0
1.05278E1,0.0E0
1.04936E1,0.0E0
1.04716E1,0.0E0
1.04990E1,0.0E0
1.05068E1,0.0E0
1.05766E1,0.0E0
1.06303E1,0.0E0
1.07080E1,0.0E0
1.07504E1,0.0E0
1.07470E1,0.0E0
1.07797E1,0.0E0
1.08183E1,0.0E0
1.08427E1,0.0E0
1.08613E1,0.0E0
1.0854E1,0.0E0
1.09209E1,0.0E0
1.09682E1,0.0E0
1.09648E1,0.0E0
1.09521E1,0.0E0
1.09345E1,0.0E0
1.09990E1,0.0E0
1.10561E1,0.0E0
1.10732E1,0.0E0
1.10649E1,0.0E0
1.10517E1,0.0E0
1.10742E1,0.0E0
1.11245E1,0.0E0
1.11323E1,0.0E0
1.11469E1,0.0E0
1.11650E1,0.0E0
1.12192E1,0.0E0
1.12944E1,0.0E0
1.13173E1,0.0E0
1.13281E1,0.0E0
1.13354E1,0.0E0
1.13808E1,0.0E0
1.14619E1,0.0E0
1.14980E1,0.0E0
1.15034E1,0.0E0
1.14863E1,0.0E0
1.14760E1,0.0E0
1.15053E1,0.0E0
1.15087E1,0.0E0
1.14897E1,0.0E0
1.14487E1,0.0E0
1.14379E1,0.0E0
1.14746E1,0.0E0
1.14829E1,0.0E0
1.14311E1,0.0E0
1.13637E1,0.0E0
1.13203E1,0.0E0
1.13481E1,0.0E0
1.13652E1,0.0E0
1.13344E1,0.0E0
1.13120E1,0.0E0
1.12885E1,0.0E0
1.12788E1,0.0E0
1.12592E1,0.0E0
1.12265E1,0.0E0
1.12221E1,0.0E0
1.12211E1,0.0E0
1.12153E1,0.0E0
1.12060E1,0.0E0
1.11723E1,0.0E0
1.11416E1,0.0E0
1.11088E1,0.0E0
1.10761E1,0.0E0
1.10297E1,0.0E0
1.09838E1,0.0E0
1.09604E1,0.0E0
1.09179E1,0.0E0
1.08569E1,0.0E0
1.07944E1,0.0E0
1.07236E1,0.0E0
1.07021E1,0.0E0
1.06728E1,0.0E0
1.06191E1,0.0E0
1.05927E1,0.0E0
1.05585E1,0.0E0
1.05673E1,0.0E0
1.05629E1,0.0E0
1.05312E1,0.0E0
1.05483E1,0.0E0
1.05971E1,0.0E0
1.06318E1,0.0E0
1.06674E1,0.0E0
1.06552E1,0.0E0
1.07036E1,0.0E0
1.07397E1,0.0E0
1.07817E1,0.0E0
1.08002E1,0.0E0
1.08247E1,0.0E0
1.08735E1,0.0E0
1.09111E1,0.0E0
1.09189E1,0.0E0
1.09311E1,0.0E0
1.08989E1,0.0E0
1.09511E1,0.0E0
1.09941E1,0.0E0
1.10312E1,0.0E0
1.10434E1,0.0E0
1.10507E1,0.0E0
1.11074E1,0.0E0
1.11621E1,0.0E0
1.11904E1,0.0E0
1.12392E1,0.0E0
1.12587E1,0.0E0
1.13032E1,0.0E0
1.13925E1,0.0E0
1.14243E1,0.0E0
1.14677E1,0.0E0
1.14545E1,0.0E0
1.14531E1,0.0E0
1.15102E1,0.0E0
1.15371E1,0.0E0
1.15253E1,0.0E0
1.14970E1,0.0E0
1.14965E1,0.0E0
1.15517E1,0.0E0
1.15400E1,0.0E0
1.15234E1,0.0E0
1.15322E1,0.0E0
1.15439E1,0.0E0
1.15561E1,0.0E0
1.15644E1,0.0E0
1.15937E1,0.0E0
1.1625E1,0.0E0
1.15966E1,0.0E0
1.16059E1,0.0E0
1.16367E1,0.0E0
1.16440E1,0.0E0
1.16269E1,0.0E0
1.15888E1,0.0E0
1.15957E1,0.0E0
1.16088E1,0.0E0
1.16142E1,0.0E0
1.16201E1,0.0E0
1.15922E1,0.0E0
1.15590E1,0.0E0
1.15888E1,0.0E0
1.15922E1,0.0E0
1.16142E1,0.0E0
1.15800E1,0.0E0
1.15810E1,0.0E0
1.16079E1,0.0E0
1.16225E1,0.0E0
1.16103E1,0.0E0
1.16035E1,0.0E0
1.15874E1,0.0E0
1.16303E1,0.0E0
1.16147E1,0.0E0
1.16289E1,0.0E0
1.16245E1,0.0E0
1.16167E1,0.0E0
1.16318E1,0.0E0
1.16342E1,0.0E0
1.16259E1,0.0E0
1.16152E1,0.0E0
1.15908E1,0.0E0
1.16196E1,0.0E0
1.16313E1,0.0E0
1.16201E1,0.0E0
1.16289E1,0.0E0
1.16113E1,0.0E0
1.16298E1,0.0E0
1.16425E1,0.0E0
1.16367E1,0.0E0
END
