!Agilent Technologies,E5071C,MY46102923,A.09.31
!Date: Wed Jan 03 04:16:26 2001
!Data & Calibration Information:
!Freq	S11:NONE(--)	S21:NONE(--)	S12:NONE(--)	S22:NONE(--)
# Hz S dB R 50
4500000000	-2.000000e+002	0.000000e+000	2.470085e+001	-1.306772e+002	-2.000000e+002	0.000000e+000	-2.000000e+002	0.000000e+000
4505000000	-2.000000e+002	0.000000e+000	2.483334e+001	7.274977e+001	-2.000000e+002	0.000000e+000	-2.000000e+002	0.000000e+000
4510000000	-2.000000e+002	0.000000e+000	2.485497e+001	-8.450024e+001	-2.000000e+002	0.000000e+000	-2.000000e+002	0.000000e+000
4515000000	-2.000000e+002	0.000000e+000	2.478104e+001	1.187351e+002	-2.000000e+002	0.000000e+000	-2.000000e+002	0.000000e+000
4520000000	-2.000000e+002	0.000000e+000	2.467752e+001	-3.763264e+001	-2.000000e+002	0.000000e+000	-2.000000e+002	0.000000e+000
4525000000	-2.000000e+002	0.000000e+000	2.455557e+001	1.661921e+002	-2.000000e+002	0.000000e+000	-2.000000e+002	0.000000e+000
4530000000	-2.000000e+002	0.000000e+000	2.438078e+001	1.041273e+001	-2.000000e+002	0.000000e+000	-2.000000e+002	0.000000e+000
4535000000	-2.000000e+002	0.000000e+000	2.426651e+001	-1.439544e+002	-2.000000e+002	0.000000e+000	-2.000000e+002	0.000000e+000
4540000000	-2.000000e+002	0.000000e+000	2.443397e+001	6.161569e+001	-2.000000e+002	0.000000e+000	-2.000000e+002	0.000000e+000
4545000000	-2.000000e+002	0.000000e+000	2.471829e+001	-9.470482e+001	-2.000000e+002	0.000000e+000	-2.000000e+002	0.000000e+000
4550000000	-2.000000e+002	0.000000e+000	2.483689e+001	1.071036e+002	-2.000000e+002	0.000000e+000	-2.000000e+002	0.000000e+000
4555000000	-2.000000e+002	0.000000e+000	2.479338e+001	-5.043712e+001	-2.000000e+002	0.000000e+000	-2.000000e+002	0.000000e+000
4560000000	-2.000000e+002	0.000000e+000	2.468401e+001	1.533637e+002	-2.000000e+002	0.000000e+000	-2.000000e+002	0.000000e+000
4565000000	-2.000000e+002	0.000000e+000	2.468612e+001	-2.329588e+000	-2.000000e+002	0.000000e+000	-2.000000e+002	0.000000e+000
4570000000	-2.000000e+002	0.000000e+000	2.476074e+001	-1.586423e+002	-2.000000e+002	0.000000e+000	-2.000000e+002	0.000000e+000
4575000000	-2.000000e+002	0.000000e+000	2.477925e+001	4.497128e+001	-2.000000e+002	0.000000e+000	-2.000000e+002	0.000000e+000
4580000000	-2.000000e+002	0.000000e+000	2.487104e+001	-1.112807e+002	-2.000000e+002	0.000000e+000	-2.000000e+002	0.000000e+000
4585000000	-2.000000e+002	0.000000e+000	2.500863e+001	9.138736e+001	-2.000000e+002	0.000000e+000	-2.000000e+002	0.000000e+000
4590000000	-2.000000e+002	0.000000e+000	2.494704e+001	-6.649978e+001	-2.000000e+002	0.000000e+000	-2.000000e+002	0.000000e+000
4595000000	-2.000000e+002	0.000000e+000	2.477621e+001	1.367590e+002	-2.000000e+002	0.000000e+000	-2.000000e+002	0.000000e+000
4600000000	-2.000000e+002	0.000000e+000	2.469124e+001	-1.857424e+001	-2.000000e+002	0.000000e+000	-2.000000e+002	0.000000e+000
4605000000	-2.000000e+002	0.000000e+000	2.483244e+001	-1.743493e+002	-2.000000e+002	0.000000e+000	-2.000000e+002	0.000000e+000
4610000000	-2.000000e+002	0.000000e+000	2.499005e+001	2.745250e+001	-2.000000e+002	0.000000e+000	-2.000000e+002	0.000000e+000
4615000000	-2.000000e+002	0.000000e+000	2.487966e+001	-1.314993e+002	-2.000000e+002	0.000000e+000	-2.000000e+002	0.000000e+000
4620000000	-2.000000e+002	0.000000e+000	2.455852e+001	7.132995e+001	-2.000000e+002	0.000000e+000	-2.000000e+002	0.000000e+000
4625000000	-2.000000e+002	0.000000e+000	2.431094e+001	-8.449376e+001	-2.000000e+002	0.000000e+000	-2.000000e+002	0.000000e+000
4630000000	-2.000000e+002	0.000000e+000	2.411204e+001	1.200862e+002	-2.000000e+002	0.000000e+000	-2.000000e+002	0.000000e+000
4635000000	-2.000000e+002	0.000000e+000	2.393597e+001	-3.475528e+001	-2.000000e+002	0.000000e+000	-2.000000e+002	0.000000e+000
4640000000	-2.000000e+002	0.000000e+000	2.394719e+001	1.714039e+002	-2.000000e+002	0.000000e+000	-2.000000e+002	0.000000e+000
4645000000	-2.000000e+002	0.000000e+000	2.429950e+001	1.592613e+001	-2.000000e+002	0.000000e+000	-2.000000e+002	0.000000e+000
4650000000	-2.000000e+002	0.000000e+000	2.458343e+001	-1.429330e+002	-2.000000e+002	0.000000e+000	-2.000000e+002	0.000000e+000
4655000000	-2.000000e+002	0.000000e+000	2.442830e+001	5.741813e+001	-2.000000e+002	0.000000e+000	-2.000000e+002	0.000000e+000
4660000000	-2.000000e+002	0.000000e+000	2.395669e+001	-9.936678e+001	-2.000000e+002	0.000000e+000	-2.000000e+002	0.000000e+000
4665000000	-2.000000e+002	0.000000e+000	2.365403e+001	1.067206e+002	-2.000000e+002	0.000000e+000	-2.000000e+002	0.000000e+000
4670000000	-2.000000e+002	0.000000e+000	2.360995e+001	-4.722493e+001	-2.000000e+002	0.000000e+000	-2.000000e+002	0.000000e+000
4675000000	-2.000000e+002	0.000000e+000	2.367305e+001	1.579987e+002	-2.000000e+002	0.000000e+000	-2.000000e+002	0.000000e+000
4680000000	-2.000000e+002	0.000000e+000	2.380843e+001	2.846561e+000	-2.000000e+002	0.000000e+000	-2.000000e+002	0.000000e+000
4685000000	-2.000000e+002	0.000000e+000	2.407383e+001	-1.532918e+002	-2.000000e+002	0.000000e+000	-2.000000e+002	0.000000e+000
4690000000	-2.000000e+002	0.000000e+000	2.427081e+001	4.849459e+001	-2.000000e+002	0.000000e+000	-2.000000e+002	0.000000e+000
4695000000	-2.000000e+002	0.000000e+000	2.413752e+001	-1.104560e+002	-2.000000e+002	0.000000e+000	-2.000000e+002	0.000000e+000
4700000000	-2.000000e+002	0.000000e+000	2.375408e+001	9.291768e+001	-2.000000e+002	0.000000e+000	-2.000000e+002	0.000000e+000
4705000000	-2.000000e+002	0.000000e+000	2.351994e+001	-6.157950e+001	-2.000000e+002	0.000000e+000	-2.000000e+002	0.000000e+000
4710000000	-2.000000e+002	0.000000e+000	2.359926e+001	1.437804e+002	-2.000000e+002	0.000000e+000	-2.000000e+002	0.000000e+000
4715000000	-2.000000e+002	0.000000e+000	2.374133e+001	-1.223184e+001	-2.000000e+002	0.000000e+000	-2.000000e+002	0.000000e+000
4720000000	-2.000000e+002	0.000000e+000	2.381255e+001	-1.691471e+002	-2.000000e+002	0.000000e+000	-2.000000e+002	0.000000e+000
4725000000	-2.000000e+002	0.000000e+000	2.384200e+001	3.388114e+001	-2.000000e+002	0.000000e+000	-2.000000e+002	0.000000e+000
4730000000	-2.000000e+002	0.000000e+000	2.384051e+001	-1.230990e+002	-2.000000e+002	0.000000e+000	-2.000000e+002	0.000000e+000
4735000000	-2.000000e+002	0.000000e+000	2.376774e+001	8.003889e+001	-2.000000e+002	0.000000e+000	-2.000000e+002	0.000000e+000
4740000000	-2.000000e+002	0.000000e+000	2.359341e+001	-7.608979e+001	-2.000000e+002	0.000000e+000	-2.000000e+002	0.000000e+000
4745000000	-2.000000e+002	0.000000e+000	2.355435e+001	1.288439e+002	-2.000000e+002	0.000000e+000	-2.000000e+002	0.000000e+000
4750000000	-2.000000e+002	0.000000e+000	2.365099e+001	-2.717732e+001	-2.000000e+002	0.000000e+000	-2.000000e+002	0.000000e+000
4755000000	-2.000000e+002	0.000000e+000	2.373898e+001	1.756001e+002	-2.000000e+002	0.000000e+000	-2.000000e+002	0.000000e+000
4760000000	-2.000000e+002	0.000000e+000	2.364298e+001	1.792718e+001	-2.000000e+002	0.000000e+000	-2.000000e+002	0.000000e+000
4765000000	-2.000000e+002	0.000000e+000	2.339134e+001	-1.384443e+002	-2.000000e+002	0.000000e+000	-2.000000e+002	0.000000e+000
4770000000	-2.000000e+002	0.000000e+000	2.328588e+001	6.641774e+001	-2.000000e+002	0.000000e+000	-2.000000e+002	0.000000e+000
4775000000	-2.000000e+002	0.000000e+000	2.331512e+001	-8.916795e+001	-2.000000e+002	0.000000e+000	-2.000000e+002	0.000000e+000
4780000000	-2.000000e+002	0.000000e+000	2.330951e+001	1.146522e+002	-2.000000e+002	0.000000e+000	-2.000000e+002	0.000000e+000
4785000000	-2.000000e+002	0.000000e+000	2.334193e+001	-4.225654e+001	-2.000000e+002	0.000000e+000	-2.000000e+002	0.000000e+000
4790000000	-2.000000e+002	0.000000e+000	2.334150e+001	1.607792e+002	-2.000000e+002	0.000000e+000	-2.000000e+002	0.000000e+000
4795000000	-2.000000e+002	0.000000e+000	2.327300e+001	3.347662e+000	-2.000000e+002	0.000000e+000	-2.000000e+002	0.000000e+000
4800000000	-2.000000e+002	0.000000e+000	2.305997e+001	-1.535066e+002	-2.000000e+002	0.000000e+000	-2.000000e+002	0.000000e+000
4805000000	-2.000000e+002	0.000000e+000	2.285377e+001	5.104733e+001	-2.000000e+002	0.000000e+000	-2.000000e+002	0.000000e+000
4810000000	-2.000000e+002	0.000000e+000	2.282022e+001	-1.034205e+002	-2.000000e+002	0.000000e+000	-2.000000e+002	0.000000e+000
4815000000	-2.000000e+002	0.000000e+000	2.304368e+001	1.006784e+002	-2.000000e+002	0.000000e+000	-2.000000e+002	0.000000e+000
4820000000	-2.000000e+002	0.000000e+000	2.312769e+001	-5.726721e+001	-2.000000e+002	0.000000e+000	-2.000000e+002	0.000000e+000
4825000000	-2.000000e+002	0.000000e+000	2.293507e+001	1.450996e+002	-2.000000e+002	0.000000e+000	-2.000000e+002	0.000000e+000
4830000000	-2.000000e+002	0.000000e+000	2.265478e+001	-1.078937e+001	-2.000000e+002	0.000000e+000	-2.000000e+002	0.000000e+000
4835000000	-2.000000e+002	0.000000e+000	2.254496e+001	-1.660736e+002	-2.000000e+002	0.000000e+000	-2.000000e+002	0.000000e+000
4840000000	-2.000000e+002	0.000000e+000	2.247779e+001	3.836869e+001	-2.000000e+002	0.000000e+000	-2.000000e+002	0.000000e+000
4845000000	-2.000000e+002	0.000000e+000	2.231590e+001	-1.169876e+002	-2.000000e+002	0.000000e+000	-2.000000e+002	0.000000e+000
4850000000	-2.000000e+002	0.000000e+000	2.230349e+001	8.851703e+001	-2.000000e+002	0.000000e+000	-2.000000e+002	0.000000e+000
4855000000	-2.000000e+002	0.000000e+000	2.253473e+001	-6.735245e+001	-2.000000e+002	0.000000e+000	-2.000000e+002	0.000000e+000
4860000000	-2.000000e+002	0.000000e+000	2.268339e+001	1.343079e+002	-2.000000e+002	0.000000e+000	-2.000000e+002	0.000000e+000
4865000000	-2.000000e+002	0.000000e+000	2.243699e+001	-2.404845e+001	-2.000000e+002	0.000000e+000	-2.000000e+002	0.000000e+000
4870000000	-2.000000e+002	0.000000e+000	2.202523e+001	-1.798514e+002	-2.000000e+002	0.000000e+000	-2.000000e+002	0.000000e+000
4875000000	-2.000000e+002	0.000000e+000	2.187034e+001	2.589779e+001	-2.000000e+002	0.000000e+000	-2.000000e+002	0.000000e+000
4880000000	-2.000000e+002	0.000000e+000	2.198671e+001	-1.289525e+002	-2.000000e+002	0.000000e+000	-2.000000e+002	0.000000e+000
4885000000	-2.000000e+002	0.000000e+000	2.204436e+001	7.472303e+001	-2.000000e+002	0.000000e+000	-2.000000e+002	0.000000e+000
4890000000	-2.000000e+002	0.000000e+000	2.202766e+001	-8.122061e+001	-2.000000e+002	0.000000e+000	-2.000000e+002	0.000000e+000
4895000000	-2.000000e+002	0.000000e+000	2.214974e+001	1.227312e+002	-2.000000e+002	0.000000e+000	-2.000000e+002	0.000000e+000
4900000000	-2.000000e+002	0.000000e+000	2.227342e+001	-3.465061e+001	-2.000000e+002	0.000000e+000	-2.000000e+002	0.000000e+000
4905000000	-2.000000e+002	0.000000e+000	2.213328e+001	1.677446e+002	-2.000000e+002	0.000000e+000	-2.000000e+002	0.000000e+000
4910000000	-2.000000e+002	0.000000e+000	2.186524e+001	1.174631e+001	-2.000000e+002	0.000000e+000	-2.000000e+002	0.000000e+000
4915000000	-2.000000e+002	0.000000e+000	2.178936e+001	-1.431541e+002	-2.000000e+002	0.000000e+000	-2.000000e+002	0.000000e+000
4920000000	-2.000000e+002	0.000000e+000	2.181157e+001	6.130881e+001	-2.000000e+002	0.000000e+000	-2.000000e+002	0.000000e+000
4925000000	-2.000000e+002	0.000000e+000	2.187516e+001	-9.563516e+001	-2.000000e+002	0.000000e+000	-2.000000e+002	0.000000e+000
4930000000	-2.000000e+002	0.000000e+000	2.167277e+001	1.076113e+002	-2.000000e+002	0.000000e+000	-2.000000e+002	0.000000e+000
4935000000	-2.000000e+002	0.000000e+000	2.146857e+001	-4.795286e+001	-2.000000e+002	0.000000e+000	-2.000000e+002	0.000000e+000
4940000000	-2.000000e+002	0.000000e+000	2.142318e+001	1.566210e+002	-2.000000e+002	0.000000e+000	-2.000000e+002	0.000000e+000
4945000000	-2.000000e+002	0.000000e+000	2.136705e+001	6.242242e-001	-2.000000e+002	0.000000e+000	-2.000000e+002	0.000000e+000
4950000000	-2.000000e+002	0.000000e+000	2.133034e+001	-1.553900e+002	-2.000000e+002	0.000000e+000	-2.000000e+002	0.000000e+000
4955000000	-2.000000e+002	0.000000e+000	2.133300e+001	4.819007e+001	-2.000000e+002	0.000000e+000	-2.000000e+002	0.000000e+000
4960000000	-2.000000e+002	0.000000e+000	2.128719e+001	-1.087949e+002	-2.000000e+002	0.000000e+000	-2.000000e+002	0.000000e+000
4965000000	-2.000000e+002	0.000000e+000	2.108089e+001	9.403826e+001	-2.000000e+002	0.000000e+000	-2.000000e+002	0.000000e+000
4970000000	-2.000000e+002	0.000000e+000	2.066751e+001	-6.134177e+001	-2.000000e+002	0.000000e+000	-2.000000e+002	0.000000e+000
4975000000	-2.000000e+002	0.000000e+000	2.052772e+001	1.454836e+002	-2.000000e+002	0.000000e+000	-2.000000e+002	0.000000e+000
4980000000	-2.000000e+002	0.000000e+000	2.073847e+001	-8.480702e+000	-2.000000e+002	0.000000e+000	-2.000000e+002	0.000000e+000
4985000000	-2.000000e+002	0.000000e+000	2.098024e+001	-1.643922e+002	-2.000000e+002	0.000000e+000	-2.000000e+002	0.000000e+000
4990000000	-2.000000e+002	0.000000e+000	2.107848e+001	3.844240e+001	-2.000000e+002	0.000000e+000	-2.000000e+002	0.000000e+000
4995000000	-2.000000e+002	0.000000e+000	2.096863e+001	-1.181163e+002	-2.000000e+002	0.000000e+000	-2.000000e+002	0.000000e+000
5000000000	-2.000000e+002	0.000000e+000	2.092290e+001	8.608550e+001	-2.000000e+002	0.000000e+000	-2.000000e+002	0.000000e+000
5005000000	-2.000000e+002	0.000000e+000	2.088893e+001	-7.004381e+001	-2.000000e+002	0.000000e+000	-2.000000e+002	0.000000e+000
5010000000	-2.000000e+002	0.000000e+000	2.074069e+001	1.338353e+002	-2.000000e+002	0.000000e+000	-2.000000e+002	0.000000e+000
5015000000	-2.000000e+002	0.000000e+000	2.064103e+001	-2.079786e+001	-2.000000e+002	0.000000e+000	-2.000000e+002	0.000000e+000
5020000000	-2.000000e+002	0.000000e+000	2.079468e+001	-1.758282e+002	-2.000000e+002	0.000000e+000	-2.000000e+002	0.000000e+000
5025000000	-2.000000e+002	0.000000e+000	2.096750e+001	2.711901e+001	-2.000000e+002	0.000000e+000	-2.000000e+002	0.000000e+000
5030000000	-2.000000e+002	0.000000e+000	2.090876e+001	-1.306600e+002	-2.000000e+002	0.000000e+000	-2.000000e+002	0.000000e+000
5035000000	-2.000000e+002	0.000000e+000	2.065871e+001	7.285832e+001	-2.000000e+002	0.000000e+000	-2.000000e+002	0.000000e+000
5040000000	-2.000000e+002	0.000000e+000	2.051898e+001	-8.203007e+001	-2.000000e+002	0.000000e+000	-2.000000e+002	0.000000e+000
5045000000	-2.000000e+002	0.000000e+000	2.066677e+001	1.222029e+002	-2.000000e+002	0.000000e+000	-2.000000e+002	0.000000e+000
5050000000	-2.000000e+002	0.000000e+000	2.067775e+001	-3.514866e+001	-2.000000e+002	0.000000e+000	-2.000000e+002	0.000000e+000
5055000000	-2.000000e+002	0.000000e+000	2.053316e+001	1.677472e+002	-2.000000e+002	0.000000e+000	-2.000000e+002	0.000000e+000
5060000000	-2.000000e+002	0.000000e+000	2.033979e+001	1.183546e+001	-2.000000e+002	0.000000e+000	-2.000000e+002	0.000000e+000
5065000000	-2.000000e+002	0.000000e+000	2.018526e+001	-1.436580e+002	-2.000000e+002	0.000000e+000	-2.000000e+002	0.000000e+000
5070000000	-2.000000e+002	0.000000e+000	2.007820e+001	6.089256e+001	-2.000000e+002	0.000000e+000	-2.000000e+002	0.000000e+000
5075000000	-2.000000e+002	0.000000e+000	1.995745e+001	-9.417133e+001	-2.000000e+002	0.000000e+000	-2.000000e+002	0.000000e+000
5080000000	-2.000000e+002	0.000000e+000	1.992369e+001	1.114383e+002	-2.000000e+002	0.000000e+000	-2.000000e+002	0.000000e+000
5085000000	-2.000000e+002	0.000000e+000	2.008782e+001	-4.393466e+001	-2.000000e+002	0.000000e+000	-2.000000e+002	0.000000e+000
5090000000	-2.000000e+002	0.000000e+000	2.014690e+001	1.590257e+002	-2.000000e+002	0.000000e+000	-2.000000e+002	0.000000e+000
5095000000	-2.000000e+002	0.000000e+000	1.994474e+001	2.338035e+000	-2.000000e+002	0.000000e+000	-2.000000e+002	0.000000e+000
5100000000	-2.000000e+002	0.000000e+000	1.974916e+001	-1.528176e+002	-2.000000e+002	0.000000e+000	-2.000000e+002	0.000000e+000
5105000000	-2.000000e+002	0.000000e+000	1.965785e+001	5.253635e+001	-2.000000e+002	0.000000e+000	-2.000000e+002	0.000000e+000
5110000000	-2.000000e+002	0.000000e+000	1.966711e+001	-1.019826e+002	-2.000000e+002	0.000000e+000	-2.000000e+002	0.000000e+000
5115000000	-2.000000e+002	0.000000e+000	1.981126e+001	1.030829e+002	-2.000000e+002	0.000000e+000	-2.000000e+002	0.000000e+000
5120000000	-2.000000e+002	0.000000e+000	2.000315e+001	-5.248589e+001	-2.000000e+002	0.000000e+000	-2.000000e+002	0.000000e+000
5125000000	-2.000000e+002	0.000000e+000	2.022899e+001	1.506622e+002	-2.000000e+002	0.000000e+000	-2.000000e+002	0.000000e+000
5130000000	-2.000000e+002	0.000000e+000	2.031530e+001	-7.280658e+000	-2.000000e+002	0.000000e+000	-2.000000e+002	0.000000e+000
5135000000	-2.000000e+002	0.000000e+000	2.011793e+001	-1.642654e+002	-2.000000e+002	0.000000e+000	-2.000000e+002	0.000000e+000
5140000000	-2.000000e+002	0.000000e+000	1.993731e+001	4.076895e+001	-2.000000e+002	0.000000e+000	-2.000000e+002	0.000000e+000
5145000000	-2.000000e+002	0.000000e+000	2.004669e+001	-1.140805e+002	-2.000000e+002	0.000000e+000	-2.000000e+002	0.000000e+000
5150000000	-2.000000e+002	0.000000e+000	2.022593e+001	8.998715e+001	-2.000000e+002	0.000000e+000	-2.000000e+002	0.000000e+000
5155000000	-2.000000e+002	0.000000e+000	2.035543e+001	-6.704733e+001	-2.000000e+002	0.000000e+000	-2.000000e+002	0.000000e+000
5160000000	-2.000000e+002	0.000000e+000	2.034848e+001	1.357462e+002	-2.000000e+002	0.000000e+000	-2.000000e+002	0.000000e+000
5165000000	-2.000000e+002	0.000000e+000	2.026132e+001	-2.114887e+001	-2.000000e+002	0.000000e+000	-2.000000e+002	0.000000e+000
5170000000	-2.000000e+002	0.000000e+000	2.012948e+001	-1.778992e+002	-2.000000e+002	0.000000e+000	-2.000000e+002	0.000000e+000
5175000000	-2.000000e+002	0.000000e+000	1.990555e+001	2.585688e+001	-2.000000e+002	0.000000e+000	-2.000000e+002	0.000000e+000
5180000000	-2.000000e+002	0.000000e+000	1.971568e+001	-1.290666e+002	-2.000000e+002	0.000000e+000	-2.000000e+002	0.000000e+000
5185000000	-2.000000e+002	0.000000e+000	1.972325e+001	7.604494e+001	-2.000000e+002	0.000000e+000	-2.000000e+002	0.000000e+000
5190000000	-2.000000e+002	0.000000e+000	1.990159e+001	-7.970330e+001	-2.000000e+002	0.000000e+000	-2.000000e+002	0.000000e+000
5195000000	-2.000000e+002	0.000000e+000	2.004583e+001	1.229097e+002	-2.000000e+002	0.000000e+000	-2.000000e+002	0.000000e+000
5200000000	-2.000000e+002	0.000000e+000	1.991697e+001	-3.493672e+001	-2.000000e+002	0.000000e+000	-2.000000e+002	0.000000e+000
5205000000	-2.000000e+002	0.000000e+000	1.961832e+001	1.687435e+002	-2.000000e+002	0.000000e+000	-2.000000e+002	0.000000e+000
5210000000	-2.000000e+002	0.000000e+000	1.941470e+001	1.356608e+001	-2.000000e+002	0.000000e+000	-2.000000e+002	0.000000e+000
5215000000	-2.000000e+002	0.000000e+000	1.933490e+001	-1.413850e+002	-2.000000e+002	0.000000e+000	-2.000000e+002	0.000000e+000
5220000000	-2.000000e+002	0.000000e+000	1.929151e+001	6.362009e+001	-2.000000e+002	0.000000e+000	-2.000000e+002	0.000000e+000
5225000000	-2.000000e+002	0.000000e+000	1.938867e+001	-9.162121e+001	-2.000000e+002	0.000000e+000	-2.000000e+002	0.000000e+000
5230000000	-2.000000e+002	0.000000e+000	1.947269e+001	1.129205e+002	-2.000000e+002	0.000000e+000	-2.000000e+002	0.000000e+000
5235000000	-2.000000e+002	0.000000e+000	1.959239e+001	-4.332737e+001	-2.000000e+002	0.000000e+000	-2.000000e+002	0.000000e+000
5240000000	-2.000000e+002	0.000000e+000	1.965240e+001	1.598632e+002	-2.000000e+002	0.000000e+000	-2.000000e+002	0.000000e+000
5245000000	-2.000000e+002	0.000000e+000	1.951183e+001	3.264987e+000	-2.000000e+002	0.000000e+000	-2.000000e+002	0.000000e+000
5250000000	-2.000000e+002	0.000000e+000	1.939480e+001	-1.523711e+002	-2.000000e+002	0.000000e+000	-2.000000e+002	0.000000e+000
5255000000	-2.000000e+002	0.000000e+000	1.935824e+001	5.202060e+001	-2.000000e+002	0.000000e+000	-2.000000e+002	0.000000e+000
5260000000	-2.000000e+002	0.000000e+000	1.932957e+001	-1.037446e+002	-2.000000e+002	0.000000e+000	-2.000000e+002	0.000000e+000
5265000000	-2.000000e+002	0.000000e+000	1.932001e+001	1.004419e+002	-2.000000e+002	0.000000e+000	-2.000000e+002	0.000000e+000
5270000000	-2.000000e+002	0.000000e+000	1.927436e+001	-5.521663e+001	-2.000000e+002	0.000000e+000	-2.000000e+002	0.000000e+000
