!Agilent Technologies,E5071C,MY46102923,A.09.31
!Date: Wed Jan 03 05:34:55 2001
!Data & Calibration Information:
!Freq	S11:NONE(--)	S21:NONE(--)	S12:NONE(--)	S22:NONE(--)
# Hz S dB R 50
4500000000	-2.000000e+002	0.000000e+000	1.381750e+001	-3.998221e+001	-2.000000e+002	0.000000e+000	-2.000000e+002	0.000000e+000
4505000000	-2.000000e+002	0.000000e+000	1.422576e+001	1.621545e+002	-2.000000e+002	0.000000e+000	-2.000000e+002	0.000000e+000
4510000000	-2.000000e+002	0.000000e+000	1.456898e+001	3.598674e+000	-2.000000e+002	0.000000e+000	-2.000000e+002	0.000000e+000
4515000000	-2.000000e+002	0.000000e+000	1.481901e+001	-1.540692e+002	-2.000000e+002	0.000000e+000	-2.000000e+002	0.000000e+000
4520000000	-2.000000e+002	0.000000e+000	1.509830e+001	4.884781e+001	-2.000000e+002	0.000000e+000	-2.000000e+002	0.000000e+000
4525000000	-2.000000e+002	0.000000e+000	1.539450e+001	-1.088145e+002	-2.000000e+002	0.000000e+000	-2.000000e+002	0.000000e+000
4530000000	-2.000000e+002	0.000000e+000	1.552423e+001	9.370259e+001	-2.000000e+002	0.000000e+000	-2.000000e+002	0.000000e+000
4535000000	-2.000000e+002	0.000000e+000	1.568397e+001	-6.274053e+001	-2.000000e+002	0.000000e+000	-2.000000e+002	0.000000e+000
4540000000	-2.000000e+002	0.000000e+000	1.602292e+001	1.406677e+002	-2.000000e+002	0.000000e+000	-2.000000e+002	0.000000e+000
4545000000	-2.000000e+002	0.000000e+000	1.652231e+001	-1.791329e+001	-2.000000e+002	0.000000e+000	-2.000000e+002	0.000000e+000
4550000000	-2.000000e+002	0.000000e+000	1.683398e+001	-1.783629e+002	-2.000000e+002	0.000000e+000	-2.000000e+002	0.000000e+000
4555000000	-2.000000e+002	0.000000e+000	1.693465e+001	2.144481e+001	-2.000000e+002	0.000000e+000	-2.000000e+002	0.000000e+000
4560000000	-2.000000e+002	0.000000e+000	1.709545e+001	-1.377211e+002	-2.000000e+002	0.000000e+000	-2.000000e+002	0.000000e+000
4565000000	-2.000000e+002	0.000000e+000	1.744381e+001	6.311110e+001	-2.000000e+002	0.000000e+000	-2.000000e+002	0.000000e+000
4570000000	-2.000000e+002	0.000000e+000	1.782191e+001	-9.718950e+001	-2.000000e+002	0.000000e+000	-2.000000e+002	0.000000e+000
4575000000	-2.000000e+002	0.000000e+000	1.810990e+001	1.025454e+002	-2.000000e+002	0.000000e+000	-2.000000e+002	0.000000e+000
4580000000	-2.000000e+002	0.000000e+000	1.833109e+001	-5.683568e+001	-2.000000e+002	0.000000e+000	-2.000000e+002	0.000000e+000
4585000000	-2.000000e+002	0.000000e+000	1.867927e+001	1.441855e+002	-2.000000e+002	0.000000e+000	-2.000000e+002	0.000000e+000
4590000000	-2.000000e+002	0.000000e+000	1.900577e+001	-1.491131e+001	-2.000000e+002	0.000000e+000	-2.000000e+002	0.000000e+000
4595000000	-2.000000e+002	0.000000e+000	1.921108e+001	-1.739874e+002	-2.000000e+002	0.000000e+000	-2.000000e+002	0.000000e+000
4600000000	-2.000000e+002	0.000000e+000	1.947162e+001	2.794145e+001	-2.000000e+002	0.000000e+000	-2.000000e+002	0.000000e+000
4605000000	-2.000000e+002	0.000000e+000	1.989336e+001	-1.308516e+002	-2.000000e+002	0.000000e+000	-2.000000e+002	0.000000e+000
4610000000	-2.000000e+002	0.000000e+000	2.022143e+001	6.801921e+001	-2.000000e+002	0.000000e+000	-2.000000e+002	0.000000e+000
4615000000	-2.000000e+002	0.000000e+000	2.021271e+001	-9.370420e+001	-2.000000e+002	0.000000e+000	-2.000000e+002	0.000000e+000
4620000000	-2.000000e+002	0.000000e+000	1.998290e+001	1.061011e+002	-2.000000e+002	0.000000e+000	-2.000000e+002	0.000000e+000
4625000000	-2.000000e+002	0.000000e+000	1.979192e+001	-5.296276e+001	-2.000000e+002	0.000000e+000	-2.000000e+002	0.000000e+000
4630000000	-2.000000e+002	0.000000e+000	1.976799e+001	1.480107e+002	-2.000000e+002	0.000000e+000	-2.000000e+002	0.000000e+000
4635000000	-2.000000e+002	0.000000e+000	1.975522e+001	-1.050560e+001	-2.000000e+002	0.000000e+000	-2.000000e+002	0.000000e+000
4640000000	-2.000000e+002	0.000000e+000	1.997071e+001	-1.684977e+002	-2.000000e+002	0.000000e+000	-2.000000e+002	0.000000e+000
4645000000	-2.000000e+002	0.000000e+000	2.046836e+001	3.274500e+001	-2.000000e+002	0.000000e+000	-2.000000e+002	0.000000e+000
4650000000	-2.000000e+002	0.000000e+000	2.095727e+001	-1.289658e+002	-2.000000e+002	0.000000e+000	-2.000000e+002	0.000000e+000
4655000000	-2.000000e+002	0.000000e+000	2.103182e+001	6.890869e+001	-2.000000e+002	0.000000e+000	-2.000000e+002	0.000000e+000
4660000000	-2.000000e+002	0.000000e+000	2.084575e+001	-9.067418e+001	-2.000000e+002	0.000000e+000	-2.000000e+002	0.000000e+000
4665000000	-2.000000e+002	0.000000e+000	2.081873e+001	1.118984e+002	-2.000000e+002	0.000000e+000	-2.000000e+002	0.000000e+000
4670000000	-2.000000e+002	0.000000e+000	2.107310e+001	-4.620607e+001	-2.000000e+002	0.000000e+000	-2.000000e+002	0.000000e+000
4675000000	-2.000000e+002	0.000000e+000	2.122231e+001	1.543441e+002	-2.000000e+002	0.000000e+000	-2.000000e+002	0.000000e+000
4680000000	-2.000000e+002	0.000000e+000	2.123754e+001	-4.538614e+000	-2.000000e+002	0.000000e+000	-2.000000e+002	0.000000e+000
4685000000	-2.000000e+002	0.000000e+000	2.130277e+001	-1.630272e+002	-2.000000e+002	0.000000e+000	-2.000000e+002	0.000000e+000
4690000000	-2.000000e+002	0.000000e+000	2.152803e+001	3.741538e+001	-2.000000e+002	0.000000e+000	-2.000000e+002	0.000000e+000
4695000000	-2.000000e+002	0.000000e+000	2.161419e+001	-1.237818e+002	-2.000000e+002	0.000000e+000	-2.000000e+002	0.000000e+000
4700000000	-2.000000e+002	0.000000e+000	2.149328e+001	7.522905e+001	-2.000000e+002	0.000000e+000	-2.000000e+002	0.000000e+000
4705000000	-2.000000e+002	0.000000e+000	2.133924e+001	-8.450988e+001	-2.000000e+002	0.000000e+000	-2.000000e+002	0.000000e+000
4710000000	-2.000000e+002	0.000000e+000	2.130612e+001	1.159438e+002	-2.000000e+002	0.000000e+000	-2.000000e+002	0.000000e+000
4715000000	-2.000000e+002	0.000000e+000	2.130465e+001	-4.339393e+001	-2.000000e+002	0.000000e+000	-2.000000e+002	0.000000e+000
4720000000	-2.000000e+002	0.000000e+000	2.131192e+001	1.579549e+002	-2.000000e+002	0.000000e+000	-2.000000e+002	0.000000e+000
4725000000	-2.000000e+002	0.000000e+000	2.150732e+001	-6.053837e-001	-2.000000e+002	0.000000e+000	-2.000000e+002	0.000000e+000
4730000000	-2.000000e+002	0.000000e+000	2.181373e+001	-1.601901e+002	-2.000000e+002	0.000000e+000	-2.000000e+002	0.000000e+000
4735000000	-2.000000e+002	0.000000e+000	2.199290e+001	3.912963e+001	-2.000000e+002	0.000000e+000	-2.000000e+002	0.000000e+000
4740000000	-2.000000e+002	0.000000e+000	2.189087e+001	-1.213782e+002	-2.000000e+002	0.000000e+000	-2.000000e+002	0.000000e+000
4745000000	-2.000000e+002	0.000000e+000	2.169539e+001	7.986552e+001	-2.000000e+002	0.000000e+000	-2.000000e+002	0.000000e+000
4750000000	-2.000000e+002	0.000000e+000	2.165250e+001	-7.818570e+001	-2.000000e+002	0.000000e+000	-2.000000e+002	0.000000e+000
4755000000	-2.000000e+002	0.000000e+000	2.175623e+001	1.228379e+002	-2.000000e+002	0.000000e+000	-2.000000e+002	0.000000e+000
4760000000	-2.000000e+002	0.000000e+000	2.176177e+001	-3.717092e+001	-2.000000e+002	0.000000e+000	-2.000000e+002	0.000000e+000
4765000000	-2.000000e+002	0.000000e+000	2.167589e+001	1.626426e+002	-2.000000e+002	0.000000e+000	-2.000000e+002	0.000000e+000
4770000000	-2.000000e+002	0.000000e+000	2.156240e+001	2.594139e+000	-2.000000e+002	0.000000e+000	-2.000000e+002	0.000000e+000
4775000000	-2.000000e+002	0.000000e+000	2.153128e+001	-1.576924e+002	-2.000000e+002	0.000000e+000	-2.000000e+002	0.000000e+000
4780000000	-2.000000e+002	0.000000e+000	2.139045e+001	4.209410e+001	-2.000000e+002	0.000000e+000	-2.000000e+002	0.000000e+000
4785000000	-2.000000e+002	0.000000e+000	2.128221e+001	-1.175030e+002	-2.000000e+002	0.000000e+000	-2.000000e+002	0.000000e+000
4790000000	-2.000000e+002	0.000000e+000	2.130457e+001	8.323792e+001	-2.000000e+002	0.000000e+000	-2.000000e+002	0.000000e+000
4795000000	-2.000000e+002	0.000000e+000	2.139344e+001	-7.674746e+001	-2.000000e+002	0.000000e+000	-2.000000e+002	0.000000e+000
4800000000	-2.000000e+002	0.000000e+000	2.137207e+001	1.227693e+002	-2.000000e+002	0.000000e+000	-2.000000e+002	0.000000e+000
4805000000	-2.000000e+002	0.000000e+000	2.118472e+001	-3.677944e+001	-2.000000e+002	0.000000e+000	-2.000000e+002	0.000000e+000
4810000000	-2.000000e+002	0.000000e+000	2.103991e+001	1.648668e+002	-2.000000e+002	0.000000e+000	-2.000000e+002	0.000000e+000
4815000000	-2.000000e+002	0.000000e+000	2.103443e+001	6.334852e+000	-2.000000e+002	0.000000e+000	-2.000000e+002	0.000000e+000
4820000000	-2.000000e+002	0.000000e+000	2.098099e+001	-1.534981e+002	-2.000000e+002	0.000000e+000	-2.000000e+002	0.000000e+000
4825000000	-2.000000e+002	0.000000e+000	2.074123e+001	4.696856e+001	-2.000000e+002	0.000000e+000	-2.000000e+002	0.000000e+000
4830000000	-2.000000e+002	0.000000e+000	2.048391e+001	-1.118550e+002	-2.000000e+002	0.000000e+000	-2.000000e+002	0.000000e+000
4835000000	-2.000000e+002	0.000000e+000	2.035072e+001	8.894174e+001	-2.000000e+002	0.000000e+000	-2.000000e+002	0.000000e+000
4840000000	-2.000000e+002	0.000000e+000	2.018217e+001	-7.117908e+001	-2.000000e+002	0.000000e+000	-2.000000e+002	0.000000e+000
4845000000	-2.000000e+002	0.000000e+000	1.982973e+001	1.290380e+002	-2.000000e+002	0.000000e+000	-2.000000e+002	0.000000e+000
4850000000	-2.000000e+002	0.000000e+000	1.960853e+001	-2.923132e+001	-2.000000e+002	0.000000e+000	-2.000000e+002	0.000000e+000
4855000000	-2.000000e+002	0.000000e+000	1.968743e+001	1.725582e+002	-2.000000e+002	0.000000e+000	-2.000000e+002	0.000000e+000
4860000000	-2.000000e+002	0.000000e+000	1.988368e+001	1.200032e+001	-2.000000e+002	0.000000e+000	-2.000000e+002	0.000000e+000
4865000000	-2.000000e+002	0.000000e+000	1.979866e+001	-1.492936e+002	-2.000000e+002	0.000000e+000	-2.000000e+002	0.000000e+000
4870000000	-2.000000e+002	0.000000e+000	1.955371e+001	5.122846e+001	-2.000000e+002	0.000000e+000	-2.000000e+002	0.000000e+000
4875000000	-2.000000e+002	0.000000e+000	1.940334e+001	-1.071343e+002	-2.000000e+002	0.000000e+000	-2.000000e+002	0.000000e+000
4880000000	-2.000000e+002	0.000000e+000	1.937451e+001	9.431878e+001	-2.000000e+002	0.000000e+000	-2.000000e+002	0.000000e+000
4885000000	-2.000000e+002	0.000000e+000	1.920381e+001	-6.479804e+001	-2.000000e+002	0.000000e+000	-2.000000e+002	0.000000e+000
4890000000	-2.000000e+002	0.000000e+000	1.895074e+001	1.373153e+002	-2.000000e+002	0.000000e+000	-2.000000e+002	0.000000e+000
4895000000	-2.000000e+002	0.000000e+000	1.885861e+001	-1.993786e+001	-2.000000e+002	0.000000e+000	-2.000000e+002	0.000000e+000
4900000000	-2.000000e+002	0.000000e+000	1.897478e+001	-1.792247e+002	-2.000000e+002	0.000000e+000	-2.000000e+002	0.000000e+000
4905000000	-2.000000e+002	0.000000e+000	1.882239e+001	1.976134e+001	-2.000000e+002	0.000000e+000	-2.000000e+002	0.000000e+000
4910000000	-2.000000e+002	0.000000e+000	1.842937e+001	-1.409334e+002	-2.000000e+002	0.000000e+000	-2.000000e+002	0.000000e+000
4915000000	-2.000000e+002	0.000000e+000	1.804518e+001	5.957711e+001	-2.000000e+002	0.000000e+000	-2.000000e+002	0.000000e+000
4920000000	-2.000000e+002	0.000000e+000	1.783370e+001	-9.952901e+001	-2.000000e+002	0.000000e+000	-2.000000e+002	0.000000e+000
4925000000	-2.000000e+002	0.000000e+000	1.766102e+001	1.008570e+002	-2.000000e+002	0.000000e+000	-2.000000e+002	0.000000e+000
4930000000	-2.000000e+002	0.000000e+000	1.749860e+001	-5.838690e+001	-2.000000e+002	0.000000e+000	-2.000000e+002	0.000000e+000
4935000000	-2.000000e+002	0.000000e+000	1.747851e+001	1.429998e+002	-2.000000e+002	0.000000e+000	-2.000000e+002	0.000000e+000
4940000000	-2.000000e+002	0.000000e+000	1.761151e+001	-1.630734e+001	-2.000000e+002	0.000000e+000	-2.000000e+002	0.000000e+000
4945000000	-2.000000e+002	0.000000e+000	1.763261e+001	-1.766000e+002	-2.000000e+002	0.000000e+000	-2.000000e+002	0.000000e+000
4950000000	-2.000000e+002	0.000000e+000	1.750373e+001	2.396449e+001	-2.000000e+002	0.000000e+000	-2.000000e+002	0.000000e+000
4955000000	-2.000000e+002	0.000000e+000	1.733003e+001	-1.347122e+002	-2.000000e+002	0.000000e+000	-2.000000e+002	0.000000e+000
4960000000	-2.000000e+002	0.000000e+000	1.725467e+001	6.656997e+001	-2.000000e+002	0.000000e+000	-2.000000e+002	0.000000e+000
4965000000	-2.000000e+002	0.000000e+000	1.715359e+001	-9.317808e+001	-2.000000e+002	0.000000e+000	-2.000000e+002	0.000000e+000
4970000000	-2.000000e+002	0.000000e+000	1.675125e+001	1.070797e+002	-2.000000e+002	0.000000e+000	-2.000000e+002	0.000000e+000
4975000000	-2.000000e+002	0.000000e+000	1.635539e+001	-5.152125e+001	-2.000000e+002	0.000000e+000	-2.000000e+002	0.000000e+000
4980000000	-2.000000e+002	0.000000e+000	1.614339e+001	1.498401e+002	-2.000000e+002	0.000000e+000	-2.000000e+002	0.000000e+000
4985000000	-2.000000e+002	0.000000e+000	1.597687e+001	-1.004786e+001	-2.000000e+002	0.000000e+000	-2.000000e+002	0.000000e+000
4990000000	-2.000000e+002	0.000000e+000	1.572485e+001	-1.701979e+002	-2.000000e+002	0.000000e+000	-2.000000e+002	0.000000e+000
4995000000	-2.000000e+002	0.000000e+000	1.550471e+001	3.043337e+001	-2.000000e+002	0.000000e+000	-2.000000e+002	0.000000e+000
5000000000	-2.000000e+002	0.000000e+000	1.546300e+001	-1.291868e+002	-2.000000e+002	0.000000e+000	-2.000000e+002	0.000000e+000
5005000000	-2.000000e+002	0.000000e+000	1.546463e+001	7.012059e+001	-2.000000e+002	0.000000e+000	-2.000000e+002	0.000000e+000
5010000000	-2.000000e+002	0.000000e+000	1.528414e+001	-9.057897e+001	-2.000000e+002	0.000000e+000	-2.000000e+002	0.000000e+000
5015000000	-2.000000e+002	0.000000e+000	1.505772e+001	1.103585e+002	-2.000000e+002	0.000000e+000	-2.000000e+002	0.000000e+000
5020000000	-2.000000e+002	0.000000e+000	1.505092e+001	-4.748623e+001	-2.000000e+002	0.000000e+000	-2.000000e+002	0.000000e+000
5025000000	-2.000000e+002	0.000000e+000	1.516086e+001	1.531228e+002	-2.000000e+002	0.000000e+000	-2.000000e+002	0.000000e+000
5030000000	-2.000000e+002	0.000000e+000	1.507780e+001	-7.121980e+000	-2.000000e+002	0.000000e+000	-2.000000e+002	0.000000e+000
5035000000	-2.000000e+002	0.000000e+000	1.475643e+001	-1.667827e+002	-2.000000e+002	0.000000e+000	-2.000000e+002	0.000000e+000
5040000000	-2.000000e+002	0.000000e+000	1.448263e+001	3.448458e+001	-2.000000e+002	0.000000e+000	-2.000000e+002	0.000000e+000
5045000000	-2.000000e+002	0.000000e+000	1.438330e+001	-1.249765e+002	-2.000000e+002	0.000000e+000	-2.000000e+002	0.000000e+000
5050000000	-2.000000e+002	0.000000e+000	1.418090e+001	7.408985e+001	-2.000000e+002	0.000000e+000	-2.000000e+002	0.000000e+000
5055000000	-2.000000e+002	0.000000e+000	1.375665e+001	-8.694906e+001	-2.000000e+002	0.000000e+000	-2.000000e+002	0.000000e+000
5060000000	-2.000000e+002	0.000000e+000	1.339374e+001	1.130700e+002	-2.000000e+002	0.000000e+000	-2.000000e+002	0.000000e+000
5065000000	-2.000000e+002	0.000000e+000	1.314719e+001	-4.688238e+001	-2.000000e+002	0.000000e+000	-2.000000e+002	0.000000e+000
5070000000	-2.000000e+002	0.000000e+000	1.294972e+001	1.525756e+002	-2.000000e+002	0.000000e+000	-2.000000e+002	0.000000e+000
5075000000	-2.000000e+002	0.000000e+000	1.269204e+001	-7.526722e+000	-2.000000e+002	0.000000e+000	-2.000000e+002	0.000000e+000
5080000000	-2.000000e+002	0.000000e+000	1.250659e+001	-1.665931e+002	-2.000000e+002	0.000000e+000	-2.000000e+002	0.000000e+000
5085000000	-2.000000e+002	0.000000e+000	1.247198e+001	3.449221e+001	-2.000000e+002	0.000000e+000	-2.000000e+002	0.000000e+000
5090000000	-2.000000e+002	0.000000e+000	1.242534e+001	-1.255138e+002	-2.000000e+002	0.000000e+000	-2.000000e+002	0.000000e+000
5095000000	-2.000000e+002	0.000000e+000	1.213976e+001	7.449155e+001	-2.000000e+002	0.000000e+000	-2.000000e+002	0.000000e+000
5100000000	-2.000000e+002	0.000000e+000	1.175659e+001	-8.443199e+001	-2.000000e+002	0.000000e+000	-2.000000e+002	0.000000e+000
5105000000	-2.000000e+002	0.000000e+000	1.141672e+001	1.174133e+002	-2.000000e+002	0.000000e+000	-2.000000e+002	0.000000e+000
5110000000	-2.000000e+002	0.000000e+000	1.109377e+001	-4.057231e+001	-2.000000e+002	0.000000e+000	-2.000000e+002	0.000000e+000
5115000000	-2.000000e+002	0.000000e+000	1.086896e+001	1.612696e+002	-2.000000e+002	0.000000e+000	-2.000000e+002	0.000000e+000
5120000000	-2.000000e+002	0.000000e+000	1.077472e+001	2.625376e+000	-2.000000e+002	0.000000e+000	-2.000000e+002	0.000000e+000
5125000000	-2.000000e+002	0.000000e+000	1.073929e+001	-1.576045e+002	-2.000000e+002	0.000000e+000	-2.000000e+002	0.000000e+000
5130000000	-2.000000e+002	0.000000e+000	1.060791e+001	4.074709e+001	-2.000000e+002	0.000000e+000	-2.000000e+002	0.000000e+000
5135000000	-2.000000e+002	0.000000e+000	1.022410e+001	-1.202339e+002	-2.000000e+002	0.000000e+000	-2.000000e+002	0.000000e+000
5140000000	-2.000000e+002	0.000000e+000	9.881468e+000	8.069426e+001	-2.000000e+002	0.000000e+000	-2.000000e+002	0.000000e+000
5145000000	-2.000000e+002	0.000000e+000	9.767045e+000	-7.768657e+001	-2.000000e+002	0.000000e+000	-2.000000e+002	0.000000e+000
5150000000	-2.000000e+002	0.000000e+000	9.851364e+000	1.237194e+002	-2.000000e+002	0.000000e+000	-2.000000e+002	0.000000e+000
5155000000	-2.000000e+002	0.000000e+000	9.869370e+000	-3.587011e+001	-2.000000e+002	0.000000e+000	-2.000000e+002	0.000000e+000
5160000000	-2.000000e+002	0.000000e+000	9.801658e+000	1.646074e+002	-2.000000e+002	0.000000e+000	-2.000000e+002	0.000000e+000
5165000000	-2.000000e+002	0.000000e+000	9.580855e+000	5.463383e+000	-2.000000e+002	0.000000e+000	-2.000000e+002	0.000000e+000
5170000000	-2.000000e+002	0.000000e+000	9.326518e+000	-1.538081e+002	-2.000000e+002	0.000000e+000	-2.000000e+002	0.000000e+000
5175000000	-2.000000e+002	0.000000e+000	8.905805e+000	4.708778e+001	-2.000000e+002	0.000000e+000	-2.000000e+002	0.000000e+000
5180000000	-2.000000e+002	0.000000e+000	8.458006e+000	-1.108717e+002	-2.000000e+002	0.000000e+000	-2.000000e+002	0.000000e+000
5185000000	-2.000000e+002	0.000000e+000	8.200915e+000	9.159597e+001	-2.000000e+002	0.000000e+000	-2.000000e+002	0.000000e+000
5190000000	-2.000000e+002	0.000000e+000	8.117552e+000	-6.733900e+001	-2.000000e+002	0.000000e+000	-2.000000e+002	0.000000e+000
5195000000	-2.000000e+002	0.000000e+000	8.080524e+000	1.319613e+002	-2.000000e+002	0.000000e+000	-2.000000e+002	0.000000e+000
5200000000	-2.000000e+002	0.000000e+000	7.838464e+000	-2.980560e+001	-2.000000e+002	0.000000e+000	-2.000000e+002	0.000000e+000
5205000000	-2.000000e+002	0.000000e+000	7.504367e+000	1.692109e+002	-2.000000e+002	0.000000e+000	-2.000000e+002	0.000000e+000
5210000000	-2.000000e+002	0.000000e+000	7.159156e+000	9.115225e+000	-2.000000e+002	0.000000e+000	-2.000000e+002	0.000000e+000
5215000000	-2.000000e+002	0.000000e+000	6.802019e+000	-1.504075e+002	-2.000000e+002	0.000000e+000	-2.000000e+002	0.000000e+000
5220000000	-2.000000e+002	0.000000e+000	6.425394e+000	5.141434e+001	-2.000000e+002	0.000000e+000	-2.000000e+002	0.000000e+000
5225000000	-2.000000e+002	0.000000e+000	6.128231e+000	-1.055185e+002	-2.000000e+002	0.000000e+000	-2.000000e+002	0.000000e+000
5230000000	-2.000000e+002	0.000000e+000	5.892734e+000	9.848835e+001	-2.000000e+002	0.000000e+000	-2.000000e+002	0.000000e+000
5235000000	-2.000000e+002	0.000000e+000	5.771389e+000	-5.794011e+001	-2.000000e+002	0.000000e+000	-2.000000e+002	0.000000e+000
5240000000	-2.000000e+002	0.000000e+000	5.612999e+000	1.447884e+002	-2.000000e+002	0.000000e+000	-2.000000e+002	0.000000e+000
5245000000	-2.000000e+002	0.000000e+000	5.223346e+000	-1.295453e+001	-2.000000e+002	0.000000e+000	-2.000000e+002	0.000000e+000
5250000000	-2.000000e+002	0.000000e+000	4.666634e+000	-1.693908e+002	-2.000000e+002	0.000000e+000	-2.000000e+002	0.000000e+000
5255000000	-2.000000e+002	0.000000e+000	4.199548e+000	3.462036e+001	-2.000000e+002	0.000000e+000	-2.000000e+002	0.000000e+000
5260000000	-2.000000e+002	0.000000e+000	3.838593e+000	-1.209273e+002	-2.000000e+002	0.000000e+000	-2.000000e+002	0.000000e+000
5265000000	-2.000000e+002	0.000000e+000	3.628954e+000	8.289739e+001	-2.000000e+002	0.000000e+000	-2.000000e+002	0.000000e+000
5270000000	-2.000000e+002	0.000000e+000	3.566844e+000	-7.378105e+001	-2.000000e+002	0.000000e+000	-2.000000e+002	0.000000e+000
